# Version 1.00
#
freq[Hz];re:Trc1_S11[U];im:Trc1_S11[U];
9.000000000000000E+008;-2.033935636281967E-001;-2.734101116657257E-001;
9.085000000000000E+008;-3.013485372066498E-001;-7.273984700441361E-002;
9.170000000000000E+008;-1.985332518815994E-001;1.196279376745224E-001;
9.255000000000000E+008;-5.470009054988623E-003;1.238394826650620E-001;
9.340000000000000E+008;9.269074350595474E-002;-1.777479075826705E-003;
9.425000000000000E+008;5.780834704637528E-002;-1.519467681646347E-001;
9.510000000000000E+008;-7.729960978031158E-002;-1.854639649391174E-001;
9.595000000000000E+008;-1.568929255008698E-001;-1.121849641203880E-001;
9.680000000000000E+008;-1.371869593858719E-001;-1.854146458208561E-002;
9.765000000000000E+008;-5.587507039308548E-002;-6.173702422529459E-003;
9.850000000000000E+008;-1.933897472918034E-002;-6.386387348175049E-002;
9.935000000000000E+008;-5.885264649987221E-002;-1.327895820140839E-001;
1.002000000000000E+009;-1.511469036340714E-001;-1.306257694959641E-001;
1.010500000000000E+009;-2.010173946619034E-001;-2.708569355309010E-002;
1.019000000000000E+009;-1.218732222914696E-001;6.439547240734100E-002;
1.027500000000000E+009;-6.064542569220066E-003;4.985694959759712E-002;
1.036000000000000E+009;5.594601482152939E-002;-6.174856051802635E-002;
1.044500000000000E+009;-1.716595143079758E-002;-1.814709454774857E-001;
1.053000000000000E+009;-1.395193934440613E-001;-1.857403963804245E-001;
1.061500000000000E+009;-2.286850512027741E-001;-1.231578439474106E-001;
1.070000000000000E+009;-2.685043811798096E-001;7.178673986345530E-003;
1.078500000000000E+009;-1.716191917657852E-001;1.464361101388931E-001;
1.087000000000000E+009;3.383252769708633E-002;1.432151198387146E-001;
1.095500000000000E+009;1.212692111730576E-001;-4.436814039945602E-002;
1.104000000000000E+009;2.853865362703800E-002;-2.128661572933197E-001;
1.112500000000000E+009;-1.598415374755859E-001;-2.360136359930039E-001;
1.121000000000000E+009;-2.806518375873566E-001;-1.030609384179115E-001;
1.129500000000000E+009;-2.456757426261902E-001;5.958947539329529E-002;
1.138000000000000E+009;-1.031729355454445E-001;1.218071430921555E-001;
1.146500000000000E+009;-3.083944029640406E-004;4.078274220228195E-002;
1.155000000000000E+009;2.062892774119973E-003;-4.953029379248619E-002;
1.163500000000000E+009;-5.643491819500923E-002;-1.121069490909576E-001;
1.172000000000000E+009;-1.278109699487686E-001;-9.719317406415939E-002;
1.180500000000000E+009;-1.434998512268066E-001;-4.574946686625481E-002;
1.189000000000000E+009;-1.093150451779366E-001;-3.498244285583496E-002;
1.197500000000000E+009;-1.323543787002564E-001;-6.815855950117111E-002;
1.206000000000000E+009;-1.737596243619919E-001;-3.218430653214455E-002;
1.214500000000000E+009;-1.709243357181549E-001;2.344818785786629E-002;
1.223000000000000E+009;-1.161187514662743E-001;6.962642073631287E-002;
1.231500000000000E+009;-4.561569169163704E-002;4.168604686856270E-002;
1.240000000000000E+009;-2.897675707936287E-002;-1.739037036895752E-002;
1.248500000000000E+009;-5.692657455801964E-002;-6.728294491767883E-002;
1.257000000000000E+009;-1.076155677437782E-001;-7.843358814716339E-002;
1.265500000000000E+009;-1.525032222270966E-001;-4.584622383117676E-002;
1.274000000000000E+009;-1.559121012687683E-001;1.170928962528706E-002;
1.282500000000000E+009;-9.822930395603180E-002;5.123918503522873E-002;
1.291000000000000E+009;-4.194656014442444E-002;1.746022887527943E-002;
1.299500000000000E+009;-4.922685772180557E-002;-4.867613315582275E-002;
1.308000000000000E+009;-1.080133840441704E-001;-5.626282840967178E-002;
1.316500000000000E+009;-1.192459464073181E-001;-2.568794880062342E-003;
1.325000000000000E+009;-6.247865036129952E-002;1.202868856489658E-002;
1.333500000000000E+009;-1.561408955603838E-002;-5.296464636921883E-002;
1.342000000000000E+009;-6.734179705381393E-002;-1.367526352405548E-001;
1.350500000000000E+009;-1.749704331159592E-001;-1.480927616357803E-001;
1.359000000000000E+009;-2.627134919166565E-001;-5.825518816709518E-002;
1.367500000000000E+009;-2.407815903425217E-001;6.604735553264618E-002;
1.376000000000000E+009;-1.395122855901718E-001;1.287619173526764E-001;
1.384500000000000E+009;-2.719917893409729E-002;9.568014740943909E-002;
1.393000000000000E+009;1.927914470434189E-002;5.327095743268728E-003;
1.401500000000000E+009;9.216377511620522E-003;-1.087879911065102E-001;
1.410000000000000E+009;-1.220549866557121E-001;-1.880969852209091E-001;
1.418500000000000E+009;-2.629645168781281E-001;-1.132599785923958E-001;
1.427000000000000E+009;-2.826840281486511E-001;3.712742403149605E-002;
1.435500000000000E+009;-1.890283972024918E-001;1.406670957803726E-001;
1.444000000000000E+009;-4.338258132338524E-002;1.401430666446686E-001;
1.452500000000000E+009;3.367188200354576E-002;1.633182354271412E-002;
1.461000000000000E+009;-1.481238938868046E-002;-1.088867262005806E-001;
1.469500000000000E+009;-1.388283669948578E-001;-1.454718559980393E-001;
1.478000000000000E+009;-2.377165257930756E-001;-7.889664918184280E-002;
1.486500000000000E+009;-2.517555058002472E-001;3.304975479841232E-002;
1.495000000000000E+009;-1.866846233606339E-001;1.127093732357025E-001;
1.503500000000000E+009;-8.571457862854004E-002;1.129338592290878E-001;
1.512000000000000E+009;-3.307639434933662E-002;4.330277070403099E-002;
1.520500000000000E+009;-4.775111377239227E-002;-3.356963023543358E-002;
1.529000000000000E+009;-1.182710304856300E-001;-6.691119819879532E-002;
1.537500000000000E+009;-1.745166033506393E-001;-3.081834875047207E-002;
1.546000000000000E+009;-1.951428502798080E-001;2.712819352746010E-002;
1.554500000000000E+009;-1.606983095407486E-001;9.444011747837067E-002;
1.563000000000000E+009;-8.898985385894775E-002;1.092236861586571E-001;
1.571500000000000E+009;-1.072275731712580E-002;6.630153208971024E-002;
1.580000000000000E+009;-6.380851380527020E-003;-3.612508252263069E-002;
1.588500000000000E+009;-6.906828284263611E-002;-9.855994582176209E-002;
1.597000000000000E+009;-1.731398701667786E-001;-1.020668968558312E-001;
1.605500000000000E+009;-2.377151399850845E-001;-8.205283433198929E-003;
1.614000000000000E+009;-2.100834697484970E-001;9.340915083885193E-002;
1.622500000000000E+009;-1.076293811202049E-001;1.447293460369110E-001;
1.631000000000000E+009;7.220891769975424E-003;8.567719161510468E-002;
1.639500000000000E+009;3.157141804695129E-002;-4.461112245917320E-002;
1.648000000000000E+009;-6.577286869287491E-002;-1.582879126071930E-001;
1.656500000000000E+009;-2.182362377643585E-001;-1.438458114862442E-001;
1.665000000000000E+009;-3.062166869640350E-001;-3.375922888517380E-002;
1.673500000000000E+009;-2.973924577236176E-001;1.159030497074127E-001;
1.682000000000000E+009;-1.727925688028336E-001;2.151915580034256E-001;
1.690500000000000E+009;-1.131613645702601E-002;1.912741810083389E-001;
1.699000000000000E+009;8.753982931375504E-002;4.698052629828453E-002;
1.707500000000000E+009;2.616446092724800E-002;-1.337257474660873E-001;
1.716000000000000E+009;-1.522065401077271E-001;-1.949085146188736E-001;
1.724500000000000E+009;-3.103402853012085E-001;-1.026713848114014E-001;
1.733000000000000E+009;-3.476780354976654E-001;7.236611843109131E-002;
1.741500000000000E+009;-2.514828443527222E-001;2.247776538133621E-001;
1.750000000000000E+009;-7.026753574609757E-002;2.605401575565338E-001;
1.758500000000000E+009;8.308933675289154E-002;1.457940638065338E-001;
1.767000000000000E+009;9.334733337163925E-002;-5.195689946413040E-002;
1.775500000000000E+009;-5.432992801070213E-002;-1.738506704568863E-001;
1.784000000000000E+009;-2.194443941116333E-001;-1.451819837093353E-001;
1.792500000000000E+009;-3.096634745597839E-001;-1.656135730445385E-002;
1.801000000000000E+009;-2.795019149780273E-001;1.294267326593399E-001;
1.809500000000000E+009;-1.618808805942535E-001;2.061299681663513E-001;
1.818000000000000E+009;-2.152138575911522E-002;1.694805324077606E-001;
1.826500000000000E+009;2.864523418247700E-002;3.315110132098198E-002;
1.835000000000000E+009;-4.584674164652824E-002;-7.721649110317230E-002;
1.843500000000000E+009;-1.716187745332718E-001;-7.655363529920578E-002;
1.852000000000000E+009;-2.309083789587021E-001;1.090462412685156E-002;
1.860500000000000E+009;-2.070614993572235E-001;9.499472379684448E-002;
1.869000000000000E+009;-1.400592327117920E-001;1.315845996141434E-001;
1.877500000000000E+009;-6.476069241762161E-002;1.011643335223198E-001;
1.886000000000000E+009;-5.978870019316673E-002;2.439317852258682E-002;
1.894500000000000E+009;-1.158234626054764E-001;-1.386711932718754E-002;
1.903000000000000E+009;-1.748560369014740E-001;1.542587298899889E-002;
1.911500000000000E+009;-1.736174225807190E-001;7.924246042966843E-002;
1.920000000000000E+009;-1.228169575333595E-001;1.024415045976639E-001;
1.928500000000000E+009;-7.455558329820633E-002;7.671198993921280E-002;
1.937000000000000E+009;-7.106915116310120E-002;1.234826445579529E-002;
1.945500000000000E+009;-1.296736150979996E-001;-2.724525704979897E-002;
1.954000000000000E+009;-1.995899379253388E-001;-2.173367422074080E-003;
1.962500000000000E+009;-2.272457182407379E-001;6.572268158197403E-002;
1.971000000000000E+009;-1.927943229675293E-001;1.339958161115646E-001;
1.979500000000000E+009;-1.274896413087845E-001;1.513543426990509E-001;
1.988000000000000E+009;-6.287435442209244E-002;1.221797615289688E-001;
1.996500000000000E+009;-4.989496618509293E-002;3.959532827138901E-002;
2.005000000000000E+009;-1.121538355946541E-001;-1.043383870273829E-002;
2.013500000000000E+009;-1.890240311622620E-001;5.509676411747932E-003;
2.022000000000000E+009;-2.228116244077683E-001;7.473411411046982E-002;
2.030500000000000E+009;-2.035517990589142E-001;1.422522962093353E-001;
2.039000000000000E+009;-1.429522931575775E-001;1.827675402164459E-001;
2.047500000000000E+009;-7.339823246002197E-002;1.678073853254318E-001;
2.056000000000000E+009;-3.456809371709824E-002;1.134988293051720E-001;
2.064500000000000E+009;-4.382002726197243E-002;5.066664144396782E-002;
2.073000000000000E+009;-9.223964065313339E-002;1.421710010617971E-002;
2.081500000000000E+009;-1.483478695154190E-001;2.477108314633369E-002;
2.090000000000000E+009;-1.858167201280594E-001;6.363670527935028E-002;
2.098500000000000E+009;-1.817755550146103E-001;1.241610348224640E-001;
2.107000000000000E+009;-1.363260596990585E-001;1.586306393146515E-001;
2.115500000000000E+009;-7.535307854413986E-002;1.476003974676132E-001;
2.124000000000000E+009;-5.877450853586197E-002;8.311422914266586E-002;
2.132500000000000E+009;-1.115272641181946E-001;4.307750239968300E-002;
2.141000000000000E+009;-1.706774085760117E-001;8.107700943946838E-002;
2.149500000000000E+009;-1.553961634635925E-001;1.518047153949738E-001;
2.158000000000000E+009;-9.169287234544754E-002;1.644157916307449E-001;
2.166500000000000E+009;-5.512898787856102E-002;1.239715442061424E-001;
2.175000000000000E+009;-6.994740664958954E-002;7.618020474910736E-002;
2.183500000000000E+009;-1.133263856172562E-001;6.923428922891617E-002;
2.192000000000000E+009;-1.390656679868698E-001;1.039964705705643E-001;
2.200500000000000E+009;-1.236361339688301E-001;1.418536156415939E-001;
2.209000000000000E+009;-8.564784377813339E-002;1.499397903680801E-001;
2.217500000000000E+009;-5.231348052620888E-002;1.320766806602478E-001;
2.226000000000000E+009;-4.287558048963547E-002;8.482664078474045E-002;
2.234500000000000E+009;-8.206038922071457E-002;5.271372944116592E-002;
2.243000000000000E+009;-1.261231750249863E-001;6.049471348524094E-002;
2.251500000000000E+009;-1.542707532644272E-001;1.001740917563438E-001;
2.260000000000000E+009;-1.419965326786041E-001;1.496124416589737E-001;
2.268500000000000E+009;-9.732930362224579E-002;1.716609299182892E-001;
2.277000000000000E+009;-5.097960308194161E-002;1.565254628658295E-001;
2.285500000000000E+009;-3.297259286046028E-002;1.059208512306213E-001;
2.294000000000000E+009;-6.633537262678146E-002;6.665017455816269E-002;
2.302500000000000E+009;-1.080013439059258E-001;6.585337221622467E-002;
2.311000000000000E+009;-1.482364684343338E-001;9.771647304296494E-002;
2.319500000000000E+009;-1.396857798099518E-001;1.546259224414825E-001;
2.328000000000000E+009;-1.000708639621735E-001;1.782255619764328E-001;
2.336500000000000E+009;-5.060639232397080E-002;1.706432402133942E-001;
2.345000000000000E+009;-3.742976114153862E-002;1.234183311462402E-001;
2.353500000000000E+009;-5.762332677841187E-002;9.702090173959732E-002;
2.362000000000000E+009;-9.417023509740830E-002;9.004715085029602E-002;
2.370500000000000E+009;-1.212023869156838E-001;1.229902878403664E-001;
2.379000000000000E+009;-1.112950369715691E-001;1.646933406591415E-001;
2.387500000000000E+009;-7.212568819522858E-002;1.896440684795380E-001;
2.396000000000000E+009;-1.862109079957008E-002;1.743097305297852E-001;
2.404500000000000E+009;2.582704473752528E-004;1.230337545275688E-001;
2.413000000000000E+009;-1.485807076096535E-002;7.479289174079895E-002;
2.421500000000000E+009;-7.048726826906204E-002;4.376452043652535E-002;
2.430000000000000E+009;-1.337784081697464E-001;6.962209939956665E-002;
2.438500000000000E+009;-1.627533137798309E-001;1.337417066097260E-001;
2.447000000000000E+009;-1.361384242773056E-001;2.055696994066238E-001;
2.455500000000000E+009;-6.398750841617584E-002;2.397059202194214E-001;
2.464000000000000E+009;1.563129201531410E-002;2.167485356330872E-001;
2.472500000000000E+009;6.037449836730957E-002;1.396138519048691E-001;
2.481000000000000E+009;3.596873953938484E-002;4.297832027077675E-002;
2.489500000000000E+009;-6.188234314322472E-002;-8.339722640812397E-003;
2.498000000000000E+009;-1.709436327219009E-001;3.352037072181702E-002;
2.506500000000000E+009;-2.187189459800720E-001;1.486793309450150E-001;
2.515000000000000E+009;-1.652385890483856E-001;2.640589773654938E-001;
2.523500000000000E+009;-4.627294465899468E-002;3.085391819477081E-001;
2.532000000000000E+009;7.087780535221100E-002;2.586167752742767E-001;
2.540500000000000E+009;1.232233494520187E-001;1.392336934804916E-001;
2.549000000000000E+009;6.856591999530792E-002;1.091727148741484E-002;
2.557500000000000E+009;-6.820808351039887E-002;-3.193508088588715E-002;
2.566000000000000E+009;-1.910627335309982E-001;4.362937062978745E-002;
2.574500000000000E+009;-2.190424501895905E-001;1.836544871330261E-001;
2.583000000000000E+009;-1.392590552568436E-001;3.000252842903137E-001;
2.591500000000000E+009;-5.550698377192020E-003;3.314434587955475E-001;
2.600000000000000E+009;1.197867691516876E-001;2.639153897762299E-001;
